T5FF4 000:005.431   SEGGER J-Link V7.90 Log File
T5FF4 000:005.623   DLL Compiled: Aug  2 2023 15:18:43
T5FF4 000:005.630   Logging started @ 2026-04-21 09:30
T5FF4 000:005.647 - 5.650ms
T5FF4 000:005.658 JLINK_SetWarnOutHandler(...)
T5FF4 000:005.667 - 0.013ms
T5FF4 000:005.684 JLINK_OpenEx(...)
T5FF4 000:008.231   Firmware: J-Link Lite-XMC4200 Rev.1 compiled Mar 22 2024 08:22:08
T5FF4 000:008.848   Firmware: J-Link Lite-XMC4200 Rev.1 compiled Mar 22 2024 08:22:08
T5FF4 000:029.431   Hardware: V1.00
T5FF4 000:029.459   S/N: 591115176
T5FF4 000:029.468   OEM: SEGGER
T5FF4 000:029.481   Feature(s): None
T5FF4 000:030.251   Bootloader: 2012 Oct 05
T5FF4 000:030.848   USB speed mode: Full speed (12 MBit/s)
T5FF4 000:031.309   TELNET listener socket opened on port 19021
T5FF4 000:031.494   WEBSRV WEBSRV_Init(): Starting webserver thread(s)
T5FF4 000:031.707   WEBSRV Webserver running on local port 19080
T5FF4 000:031.846   Looking for J-Link GUI Server exe at: C:\Keil_v5\ARM\Segger\JLinkGUIServer.exe
T5FF4 000:031.960   Looking for J-Link GUI Server exe at: C:\Program Files\SEGGER\JLink_V914a\\JLinkGUIServer.exe
T5FF4 000:032.005   Forking J-Link GUI Server: C:\Program Files\SEGGER\JLink_V914a\\JLinkGUIServer.exe
T5FF4 000:087.700   J-Link GUI Server info: "J-Link GUI server V9.14a "
T5FF4 000:095.942 - 90.297ms returns "O.K."
T5FF4 000:096.025 JLINK_GetEmuCaps()
T5FF4 000:096.032 - 0.009ms returns 0xB8EA5A33
T5FF4 000:096.048 JLINK_TIF_GetAvailable(...)
T5FF4 000:096.427 - 0.382ms
T5FF4 000:096.435 JLINK_SetErrorOutHandler(...)
T5FF4 000:096.440 - 0.007ms
T5FF4 000:096.464 JLINK_ExecCommand("ProjectFile = "C:\Infienon_TLE988X3\boards\infineon\tle988x_tle989x_evalboard\UART_PRINTF_EXAMPLE_TLE989X_app1\JLinkSettings.ini"", ...). 
T5FF4 000:112.138   Ref file found at: C:\Keil_v5\ARM\Segger\JLinkDevices.ref
T5FF4 000:112.251   REF file references invalid XML file: C:\Program Files\SEGGER\JLink\JLinkDevices.xml
T5FF4 000:112.465 - 16.007ms returns 0x00
T5FF4 000:114.926 JLINK_ExecCommand("Device = TLE9893_2QKW62S", ...). 
T5FF4 000:122.756   Device "TLE9893" selected.
T5FF4 000:123.338 - 8.399ms returns 0x00
T5FF4 000:123.364 JLINK_ExecCommand("DisableConnectionTimeout", ...). 
T5FF4 000:123.372 - 0.003ms returns 0x01
T5FF4 000:123.464 JLINK_GetHardwareVersion()
T5FF4 000:123.473 - 0.011ms returns 10000
T5FF4 000:123.481 JLINK_GetDLLVersion()
T5FF4 000:123.495 - 0.017ms returns 79000
T5FF4 000:123.502 JLINK_GetOEMString(...)
T5FF4 000:123.511 JLINK_GetFirmwareString(...)
T5FF4 000:123.518 - 0.009ms
T5FF4 000:134.173 JLINK_GetDLLVersion()
T5FF4 000:134.219 - 0.051ms returns 79000
T5FF4 000:134.233 JLINK_GetCompileDateTime()
T5FF4 000:134.249 - 0.021ms
T5FF4 000:138.725 JLINK_GetFirmwareString(...)
T5FF4 000:138.758 - 0.036ms
T5FF4 000:141.225 JLINK_GetHardwareVersion()
T5FF4 000:141.252 - 0.029ms returns 10000
T5FF4 000:143.695 JLINK_GetSN()
T5FF4 000:143.712 - 0.019ms returns 591115176
T5FF4 000:146.091 JLINK_GetOEMString(...)
T5FF4 000:148.269 JLINK_TIF_Select(JLINKARM_TIF_SWD)
T5FF4 000:149.148 - 0.889ms returns 0x00
T5FF4 000:149.213 JLINK_HasError()
T5FF4 000:149.356 JLINK_SetSpeed(5000)
T5FF4 000:149.704 - 0.351ms
T5FF4 000:149.713 JLINK_GetId()
T5FF4 000:153.178   InitTarget() start
T5FF4 000:153.211    J-Link Script File: Executing InitTarget()
T5FF4 000:216.565   InitTarget() end - Took 56.4ms
T5FF4 000:222.642   Found SW-DP with ID 0x2BA01477
T5FF4 000:232.106   DPIDR: 0x2BA01477
T5FF4 000:237.272   CoreSight SoC-400 or earlier
T5FF4 000:240.604   Scanning AP map to find all available APs
T5FF4 000:245.933   AP[1]: Stopped AP scan as end of AP map has been reached
T5FF4 000:250.477   AP[0]: AHB-AP (IDR: 0x24770011)
T5FF4 000:255.139   Iterating through AP map to find AHB-AP to use
T5FF4 000:262.062   AP[0]: Core found
T5FF4 000:266.017   AP[0]: AHB-AP ROM base: 0xE00FF000
T5FF4 000:272.104   CPUID register: 0x412FC231. Implementer code: 0x41 (ARM)
T5FF4 000:282.698   Found Cortex-M3 r2p1, Little endian.
T5FF4 000:283.319   -- Max. mem block: 0x000035E0
T5FF4 000:283.863   CPU_ReadMem(4 bytes @ 0xE000EDF0)
T5FF4 000:284.364   CPU_ReadMem(4 bytes @ 0xE0002000)
T5FF4 000:291.990   FPUnit: 2 code (BP) slots and 0 literal slots
T5FF4 000:292.044   CPU_ReadMem(4 bytes @ 0xE000EDFC)
T5FF4 000:292.522   CPU_WriteMem(4 bytes @ 0xE000EDFC)
T5FF4 000:293.001   CPU_ReadMem(4 bytes @ 0xE0001000)
T5FF4 000:293.461   CPU_WriteMem(4 bytes @ 0xE0001000)
T5FF4 000:293.839   CPU_ReadMem(4 bytes @ 0xE000ED88)
T5FF4 000:294.264   CPU_WriteMem(4 bytes @ 0xE000ED88)
T5FF4 000:294.700   CPU_ReadMem(4 bytes @ 0xE000ED88)
T5FF4 000:295.155   CPU_WriteMem(4 bytes @ 0xE000ED88)
T5FF4 000:299.778   CoreSight components:
T5FF4 000:304.295   ROMTbl[0] @ E00FF000
T5FF4 000:304.344   CPU_ReadMem(64 bytes @ 0xE00FF000)
T5FF4 000:305.344   CPU_ReadMem(32 bytes @ 0xE000EFE0)
T5FF4 000:309.884   [0][0]: E000E000 CID B105E00D PID 000BB000 SCS
T5FF4 000:309.949   CPU_ReadMem(32 bytes @ 0xE0001FE0)
T5FF4 000:314.135   [0][1]: E0001000 CID B105E00D PID 003BB002 DWT
T5FF4 000:314.184   CPU_ReadMem(32 bytes @ 0xE0002FE0)
T5FF4 000:319.167   [0][2]: E0002000 CID B105E00D PID 002BB003 FPB
T5FF4 000:319.825 - 170.137ms returns 0x2BA01477
T5FF4 000:319.975 JLINK_GetDLLVersion()
T5FF4 000:319.986 - 0.015ms returns 79000
T5FF4 000:319.998 JLINK_CORE_GetFound()
T5FF4 000:320.007 - 0.014ms returns 0x30000FF
T5FF4 000:320.019 JLINK_GetDebugInfo(0x100 = JLINKARM_ROM_TABLE_ADDR_INDEX)
T5FF4 000:320.031   Value=0xE00FF000
T5FF4 000:320.045 - 0.030ms returns 0
T5FF4 000:324.837 JLINK_GetDebugInfo(0x100 = JLINKARM_ROM_TABLE_ADDR_INDEX)
T5FF4 000:324.880   Value=0xE00FF000
T5FF4 000:324.888 - 0.053ms returns 0
T5FF4 000:324.894 JLINK_GetDebugInfo(0x101 = JLINKARM_DEBUG_INFO_ETM_ADDR_INDEX)
T5FF4 000:324.899   Value=0x00000000
T5FF4 000:324.906 - 0.013ms returns 0
T5FF4 000:324.945 JLINK_ReadMemEx(0xE0041FF0, 0x10 Bytes, Flags = 0x02000004)
T5FF4 000:324.998   CPU_ReadMem(16 bytes @ 0xE0041FF0)
T5FF4 000:325.573   Data:  00 00 00 00 00 00 00 00 00 00 00 00 00 00 00 00
T5FF4 000:325.589 - 0.653ms returns 16 (0x10)
T5FF4 000:325.605 JLINK_GetDebugInfo(0x102 = JLINKARM_DEBUG_INFO_MTB_ADDR_INDEX)
T5FF4 000:325.610   Value=0x00000000
T5FF4 000:325.617 - 0.015ms returns 0
T5FF4 000:325.623 JLINK_GetDebugInfo(0x103 = JLINKARM_DEBUG_INFO_TPIU_ADDR_INDEX)
T5FF4 000:325.628   Value=0x00000000
T5FF4 000:325.636 - 0.015ms returns 0
T5FF4 000:325.642 JLINK_ReadMemEx(0xE0040FF0, 0x10 Bytes, Flags = 0x02000004)
T5FF4 000:325.656   CPU_ReadMem(16 bytes @ 0xE0040FF0)
T5FF4 000:326.231   Data:  00 00 00 00 00 00 00 00 00 00 00 00 00 00 00 00
T5FF4 000:326.288 - 0.648ms returns 16 (0x10)
T5FF4 000:326.295 JLINK_GetDebugInfo(0x104 = JLINKARM_DEBUG_INFO_ITM_ADDR_INDEX)
T5FF4 000:326.299   Value=0xE0000000
T5FF4 000:326.305 - 0.012ms returns 0
T5FF4 000:326.311 JLINK_GetDebugInfo(0x105 = JLINKARM_DEBUG_INFO_DWT_ADDR_INDEX)
T5FF4 000:326.316   Value=0xE0001000
T5FF4 000:326.323 - 0.014ms returns 0
T5FF4 000:326.328 JLINK_GetDebugInfo(0x106 = JLINKARM_DEBUG_INFO_FPB_ADDR_INDEX)
T5FF4 000:326.332   Value=0xE0002000
T5FF4 000:326.338 - 0.012ms returns 0
T5FF4 000:326.343 JLINK_GetDebugInfo(0x107 = JLINKARM_DEBUG_INFO_NVIC_ADDR_INDEX)
T5FF4 000:326.348   Value=0xE000E000
T5FF4 000:326.354 - 0.012ms returns 0
T5FF4 000:326.359 JLINK_GetDebugInfo(0x10C = JLINKARM_DEBUG_INFO_DBG_ADDR_INDEX)
T5FF4 000:326.364   Value=0xE000EDF0
T5FF4 000:326.370 - 0.012ms returns 0
T5FF4 000:326.375 JLINK_GetDebugInfo(0x01 = Unknown)
T5FF4 000:326.386   Value=0x00000000
T5FF4 000:326.392 - 0.019ms returns 0
T5FF4 000:326.398 JLINK_ReadMemU32(0xE000ED00, 0x1 Items)
T5FF4 000:326.405   CPU_ReadMem(4 bytes @ 0xE000ED00)
T5FF4 000:326.895   Data:  31 C2 2F 41
T5FF4 000:326.904   Debug reg: CPUID
T5FF4 000:326.910 - 0.515ms returns 1 (0x1)
T5FF4 000:326.917 JLINK_GetDebugInfo(0x10F = JLINKARM_DEBUG_INFO_HAS_CORTEX_M_SECURITY_EXT_INDEX)
T5FF4 000:326.921   Value=0x00000000
T5FF4 000:326.928 - 0.013ms returns 0
T5FF4 000:326.935 JLINK_HasError()
T5FF4 000:326.941 JLINK_SetResetType(JLINKARM_CM3_RESET_TYPE_CORE)
T5FF4 000:326.950 - 0.014ms returns JLINKARM_CM3_RESET_TYPE_NORMAL
T5FF4 000:326.963 JLINK_Reset()
T5FF4 000:330.242   ResetTarget() start
T5FF4 000:330.282    J-Link Script File: Executing ResetTarget()
T5FF4 000:333.767   CPU_ReadMem(64 bytes @ 0x11000080)
T5FF4 000:334.736    -- Updating C cache (64 bytes @ 0x11000080)
T5FF4 000:334.749    -- Read from C cache (4 bytes @ 0x11000084)
T5FF4 000:334.766   CPU_WriteMem(4 bytes @ 0xE0002000)
T5FF4 000:335.292   CPU_ReadMem(4 bytes @ 0xE0002008)
T5FF4 000:335.802   CPU_WriteMem(4 bytes @ 0xE0002008)
T5FF4 000:336.750   CPU_WriteMem(4 bytes @ 0xE000ED0C)
T5FF4 000:442.432   CPU_WriteMem(4 bytes @ 0xE0002008)
T5FF4 000:451.434   ResetTarget() end - Took 112ms
T5FF4 000:455.619   CPU_WriteMem(4 bytes @ 0xE0002000)
T5FF4 000:456.147   CPU_ReadMem(4 bytes @ 0xE000EDFC)
T5FF4 000:456.595   CPU_ReadMem(4 bytes @ 0xE0001000)
T5FF4 000:457.057 - 130.101ms
T5FF4 000:457.099 JLINK_Halt()
T5FF4 000:457.110 - 0.015ms returns 0x00
T5FF4 000:457.194 JLINK_ReadMemU32(0xE000EDF0, 0x1 Items)
T5FF4 000:457.219   CPU_ReadMem(4 bytes @ 0xE000EDF0)
T5FF4 000:457.650   Data:  03 00 03 00
T5FF4 000:457.666   Debug reg: DHCSR
T5FF4 000:457.680 - 0.491ms returns 1 (0x1)
T5FF4 000:457.721 JLINK_WriteU32_64(0xE000EDF0, 0xA05F0003)
T5FF4 000:457.733   Debug reg: DHCSR
T5FF4 000:458.165   CPU_WriteMem(4 bytes @ 0xE000EDF0)
T5FF4 000:458.710 - 0.998ms returns 0 (0x00000000)
T5FF4 000:458.730 JLINK_WriteU32_64(0xE000EDFC, 0x01000000)
T5FF4 000:458.742   Debug reg: DEMCR
T5FF4 000:458.764   CPU_WriteMem(4 bytes @ 0xE000EDFC)
T5FF4 000:459.279 - 0.586ms returns 0 (0x00000000)
T5FF4 000:497.983 JLINK_GetHWStatus(...)
T5FF4 000:498.542 - 0.573ms returns 0
T5FF4 000:520.188 JLINK_GetNumBPUnits(Type = 0xFFFFFF00)
T5FF4 000:520.252 - 0.069ms returns 0x02
T5FF4 000:520.265 JLINK_GetNumBPUnits(Type = 0xF0)
T5FF4 000:520.276 - 0.016ms returns 0x2000
T5FF4 000:520.288 JLINK_GetNumWPUnits()
T5FF4 000:520.299 - 0.016ms returns 1
T5FF4 000:534.264 JLINK_GetSpeed()
T5FF4 000:534.297 - 0.036ms returns 3000
T5FF4 000:545.107 JLINK_ReadMemU32(0xE000E004, 0x1 Items)
T5FF4 000:545.153   CPU_ReadMem(4 bytes @ 0xE000E004)
T5FF4 000:545.713   Data:  00 00 00 00
T5FF4 000:545.724 - 0.619ms returns 1 (0x1)
T5FF4 000:545.731 JLINK_ReadMemU32(0xE000E004, 0x1 Items)
T5FF4 000:545.739   CPU_ReadMem(4 bytes @ 0xE000E004)
T5FF4 000:546.264   Data:  00 00 00 00
T5FF4 000:546.309 - 0.580ms returns 1 (0x1)
T5FF4 000:546.315 JLINK_WriteMemEx(0xE0001000, 0x0000001C Bytes, Flags = 0x02000004)
T5FF4 000:546.321   Data:  01 00 00 00 00 00 00 00 00 00 00 00 00 00 00 00 ...
T5FF4 000:546.334   CPU_WriteMem(28 bytes @ 0xE0001000)
T5FF4 000:547.001 - 0.688ms returns 0x1C
T5FF4 000:547.012 JLINK_Halt()
T5FF4 000:547.017 - 0.007ms returns 0x00
T5FF4 000:547.022 JLINK_IsHalted()
T5FF4 000:547.028 - 0.007ms returns TRUE
T5FF4 000:553.206 JLINK_WriteMem(0x18000000, 0x130 Bytes, ...)
T5FF4 000:553.257   Data:  00 BE 0A E0 0D 78 2D 06 68 40 08 24 40 00 00 D3 ...
T5FF4 000:553.940   CPU_WriteMem(304 bytes @ 0x18000000)
T5FF4 000:556.561 - 3.379ms returns 0x130
T5FF4 000:556.640 JLINK_HasError()
T5FF4 000:556.649 JLINK_WriteReg(R0, 0x11000000)
T5FF4 000:556.659 - 0.012ms returns 0
T5FF4 000:556.665 JLINK_WriteReg(R1, 0x00B71B00)
T5FF4 000:556.671 - 0.008ms returns 0
T5FF4 000:556.677 JLINK_WriteReg(R2, 0x00000001)
T5FF4 000:556.682 - 0.008ms returns 0
T5FF4 000:556.688 JLINK_WriteReg(R3, 0x00000000)
T5FF4 000:556.693 - 0.007ms returns 0
T5FF4 000:556.699 JLINK_WriteReg(R4, 0x00000000)
T5FF4 000:556.704 - 0.007ms returns 0
T5FF4 000:556.710 JLINK_WriteReg(R5, 0x00000000)
T5FF4 000:556.715 - 0.007ms returns 0
T5FF4 000:556.722 JLINK_WriteReg(R6, 0x00000000)
T5FF4 000:556.727 - 0.007ms returns 0
T5FF4 000:556.733 JLINK_WriteReg(R7, 0x00000000)
T5FF4 000:556.738 - 0.008ms returns 0
T5FF4 000:556.744 JLINK_WriteReg(R8, 0x00000000)
T5FF4 000:556.770 - 0.028ms returns 0
T5FF4 000:556.776 JLINK_WriteReg(R9, 0x18000114)
T5FF4 000:556.781 - 0.007ms returns 0
T5FF4 000:556.787 JLINK_WriteReg(R10, 0x00000000)
T5FF4 000:556.796 - 0.013ms returns 0
T5FF4 000:556.804 JLINK_WriteReg(R11, 0x00000000)
T5FF4 000:556.809 - 0.007ms returns 0
T5FF4 000:556.815 JLINK_WriteReg(R12, 0x00000000)
T5FF4 000:556.820 - 0.007ms returns 0
T5FF4 000:556.826 JLINK_WriteReg(R13 (SP), 0x18001000)
T5FF4 000:556.832 - 0.008ms returns 0
T5FF4 000:556.838 JLINK_WriteReg(R14, 0x18000001)
T5FF4 000:556.843 - 0.007ms returns 0
T5FF4 000:556.849 JLINK_WriteReg(R15 (PC), 0x18000062)
T5FF4 000:556.860 - 0.012ms returns 0
T5FF4 000:556.865 JLINK_WriteReg(XPSR, 0x01000000)
T5FF4 000:556.871 - 0.007ms returns 0
T5FF4 000:556.877 JLINK_WriteReg(MSP, 0x18001000)
T5FF4 000:556.882 - 0.007ms returns 0
T5FF4 000:556.888 JLINK_WriteReg(PSP, 0x18001000)
T5FF4 000:556.893 - 0.009ms returns 0
T5FF4 000:556.900 JLINK_WriteReg(CFBP, 0x00000000)
T5FF4 000:556.905 - 0.007ms returns 0
T5FF4 000:556.912 JLINK_SetBPEx(Addr = 0x18000000, Type = 0xFFFFFFF2)
T5FF4 000:556.919 - 0.010ms returns 0x00000001
T5FF4 000:556.925 JLINK_Go()
T5FF4 000:556.940   CPU_WriteMem(4 bytes @ 0xE0002000)
T5FF4 000:557.399   CPU_ReadMem(4 bytes @ 0xE0001000)
T5FF4 000:557.834   CPU_WriteMem(4 bytes @ 0xE0002008)
T5FF4 000:557.842   CPU_WriteMem(4 bytes @ 0xE000200C)
T5FF4 000:558.600   CPU_WriteMem(4 bytes @ 0xE0001004)
T5FF4 000:562.187 - 5.273ms
T5FF4 000:562.220 JLINK_IsHalted()
T5FF4 000:565.464 - 3.251ms returns TRUE
T5FF4 000:565.486 JLINK_ReadReg(R15 (PC))
T5FF4 000:565.498 - 0.017ms returns 0x18000000
T5FF4 000:565.587 JLINK_ClrBPEx(BPHandle = 0x00000001)
T5FF4 000:565.598 - 0.015ms returns 0x00
T5FF4 000:565.609 JLINK_ReadReg(R0)
T5FF4 000:565.619 - 0.013ms returns 0x00000000
T5FF4 000:566.170 JLINK_HasError()
T5FF4 000:566.192 JLINK_WriteReg(R0, 0x11000000)
T5FF4 000:566.205 - 0.017ms returns 0
T5FF4 000:566.217 JLINK_WriteReg(R1, 0x00001000)
T5FF4 000:566.226 - 0.013ms returns 0
T5FF4 000:566.236 JLINK_WriteReg(R2, 0x000000FF)
T5FF4 000:566.246 - 0.014ms returns 0
T5FF4 000:566.256 JLINK_WriteReg(R3, 0x00000000)
T5FF4 000:566.266 - 0.013ms returns 0
T5FF4 000:566.276 JLINK_WriteReg(R4, 0x00000000)
T5FF4 000:566.285 - 0.013ms returns 0
T5FF4 000:566.295 JLINK_WriteReg(R5, 0x00000000)
T5FF4 000:566.304 - 0.013ms returns 0
T5FF4 000:566.314 JLINK_WriteReg(R6, 0x00000000)
T5FF4 000:566.323 - 0.013ms returns 0
T5FF4 000:566.334 JLINK_WriteReg(R7, 0x00000000)
T5FF4 000:566.342 - 0.013ms returns 0
T5FF4 000:566.353 JLINK_WriteReg(R8, 0x00000000)
T5FF4 000:566.361 - 0.013ms returns 0
T5FF4 000:566.372 JLINK_WriteReg(R9, 0x18000114)
T5FF4 000:566.381 - 0.013ms returns 0
T5FF4 000:566.391 JLINK_WriteReg(R10, 0x00000000)
T5FF4 000:566.400 - 0.013ms returns 0
T5FF4 000:566.410 JLINK_WriteReg(R11, 0x00000000)
T5FF4 000:566.419 - 0.013ms returns 0
T5FF4 000:566.429 JLINK_WriteReg(R12, 0x00000000)
T5FF4 000:566.439 - 0.013ms returns 0
T5FF4 000:566.449 JLINK_WriteReg(R13 (SP), 0x18001000)
T5FF4 000:566.459 - 0.014ms returns 0
T5FF4 000:566.469 JLINK_WriteReg(R14, 0x18000001)
T5FF4 000:566.479 - 0.013ms returns 0
T5FF4 000:566.489 JLINK_WriteReg(R15 (PC), 0x180000F8)
T5FF4 000:566.499 - 0.013ms returns 0
T5FF4 000:566.509 JLINK_WriteReg(XPSR, 0x01000000)
T5FF4 000:566.518 - 0.013ms returns 0
T5FF4 000:566.528 JLINK_WriteReg(MSP, 0x18001000)
T5FF4 000:566.537 - 0.013ms returns 0
T5FF4 000:566.547 JLINK_WriteReg(PSP, 0x18001000)
T5FF4 000:566.556 - 0.013ms returns 0
T5FF4 000:566.566 JLINK_WriteReg(CFBP, 0x00000000)
T5FF4 000:566.575 - 0.013ms returns 0
T5FF4 000:566.586 JLINK_SetBPEx(Addr = 0x18000000, Type = 0xFFFFFFF2)
T5FF4 000:566.597 - 0.015ms returns 0x00000002
T5FF4 000:566.607 JLINK_Go()
T5FF4 000:566.623   CPU_WriteMem(4 bytes @ 0xE0002000)
T5FF4 000:567.089   CPU_ReadMem(4 bytes @ 0xE0001000)
T5FF4 000:571.082 - 4.522ms
T5FF4 000:571.147 JLINK_IsHalted()
T5FF4 000:574.650 - 3.531ms returns TRUE
T5FF4 000:574.692 JLINK_ReadReg(R15 (PC))
T5FF4 000:574.709 - 0.021ms returns 0x18000000
T5FF4 000:574.721 JLINK_ClrBPEx(BPHandle = 0x00000002)
T5FF4 000:574.733 - 0.017ms returns 0x00
T5FF4 000:574.746 JLINK_ReadReg(R0)
T5FF4 000:574.851 - 0.110ms returns 0x00000001
T5FF4 000:574.866 JLINK_HasError()
T5FF4 000:574.880 JLINK_WriteReg(R0, 0x11000000)
T5FF4 000:574.893 - 0.017ms returns 0
T5FF4 000:574.905 JLINK_WriteReg(R1, 0x00001000)
T5FF4 000:574.916 - 0.016ms returns 0
T5FF4 000:574.928 JLINK_WriteReg(R2, 0x000000FF)
T5FF4 000:574.938 - 0.015ms returns 0
T5FF4 000:574.950 JLINK_WriteReg(R3, 0x00000000)
T5FF4 000:574.961 - 0.016ms returns 0
T5FF4 000:574.973 JLINK_WriteReg(R4, 0x00000000)
T5FF4 000:574.984 - 0.015ms returns 0
T5FF4 000:574.996 JLINK_WriteReg(R5, 0x00000000)
T5FF4 000:575.008 - 0.019ms returns 0
T5FF4 000:575.024 JLINK_WriteReg(R6, 0x00000000)
T5FF4 000:575.038 - 0.021ms returns 0
T5FF4 000:575.054 JLINK_WriteReg(R7, 0x00000000)
T5FF4 000:575.068 - 0.020ms returns 0
T5FF4 000:575.083 JLINK_WriteReg(R8, 0x00000000)
T5FF4 000:575.098 - 0.021ms returns 0
T5FF4 000:575.113 JLINK_WriteReg(R9, 0x18000114)
T5FF4 000:575.128 - 0.021ms returns 0
T5FF4 000:575.144 JLINK_WriteReg(R10, 0x00000000)
T5FF4 000:575.158 - 0.021ms returns 0
T5FF4 000:575.175 JLINK_WriteReg(R11, 0x00000000)
T5FF4 000:575.189 - 0.020ms returns 0
T5FF4 000:575.205 JLINK_WriteReg(R12, 0x00000000)
T5FF4 000:575.219 - 0.021ms returns 0
T5FF4 000:575.235 JLINK_WriteReg(R13 (SP), 0x18001000)
T5FF4 000:575.250 - 0.021ms returns 0
T5FF4 000:575.265 JLINK_WriteReg(R14, 0x18000001)
T5FF4 000:575.279 - 0.020ms returns 0
T5FF4 000:575.295 JLINK_WriteReg(R15 (PC), 0x180000AC)
T5FF4 000:575.309 - 0.020ms returns 0
T5FF4 000:575.325 JLINK_WriteReg(XPSR, 0x01000000)
T5FF4 000:575.339 - 0.021ms returns 0
T5FF4 000:575.355 JLINK_WriteReg(MSP, 0x18001000)
T5FF4 000:575.369 - 0.020ms returns 0
T5FF4 000:575.384 JLINK_WriteReg(PSP, 0x18001000)
T5FF4 000:575.398 - 0.020ms returns 0
T5FF4 000:575.414 JLINK_WriteReg(CFBP, 0x00000000)
T5FF4 000:575.428 - 0.020ms returns 0
T5FF4 000:575.444 JLINK_SetBPEx(Addr = 0x18000000, Type = 0xFFFFFFF2)
T5FF4 000:575.461 - 0.023ms returns 0x00000003
T5FF4 000:575.477 JLINK_Go()
T5FF4 000:575.503   CPU_WriteMem(4 bytes @ 0xE0002000)
T5FF4 000:576.126   CPU_ReadMem(4 bytes @ 0xE0001000)
T5FF4 000:579.910 - 4.458ms
T5FF4 000:579.950 JLINK_IsHalted()
T5FF4 000:580.490 - 0.550ms returns FALSE
T5FF4 000:580.513 JLINK_HasError()
T5FF4 000:629.433 JLINK_IsHalted()
T5FF4 000:632.832 - 3.436ms returns TRUE
T5FF4 000:632.884 JLINK_ReadReg(R15 (PC))
T5FF4 000:632.903 - 0.025ms returns 0x18000000
T5FF4 000:632.918 JLINK_ClrBPEx(BPHandle = 0x00000003)
T5FF4 000:632.932 - 0.019ms returns 0x00
T5FF4 000:632.947 JLINK_ReadReg(R0)
T5FF4 000:632.960 - 0.019ms returns 0x00000000
T5FF4 000:634.106 JLINK_HasError()
T5FF4 000:634.137 JLINK_WriteReg(R0, 0x11001000)
T5FF4 000:634.150 - 0.017ms returns 0
T5FF4 000:634.160 JLINK_WriteReg(R1, 0x00001000)
T5FF4 000:634.168 - 0.012ms returns 0
T5FF4 000:634.177 JLINK_WriteReg(R2, 0x000000FF)
T5FF4 000:634.185 - 0.011ms returns 0
T5FF4 000:634.194 JLINK_WriteReg(R3, 0x00000000)
T5FF4 000:634.202 - 0.011ms returns 0
T5FF4 000:634.211 JLINK_WriteReg(R4, 0x00000000)
T5FF4 000:634.219 - 0.011ms returns 0
T5FF4 000:634.228 JLINK_WriteReg(R5, 0x00000000)
T5FF4 000:634.237 - 0.012ms returns 0
T5FF4 000:634.245 JLINK_WriteReg(R6, 0x00000000)
T5FF4 000:634.253 - 0.011ms returns 0
T5FF4 000:634.262 JLINK_WriteReg(R7, 0x00000000)
T5FF4 000:634.270 - 0.011ms returns 0
T5FF4 000:634.279 JLINK_WriteReg(R8, 0x00000000)
T5FF4 000:634.286 - 0.011ms returns 0
T5FF4 000:634.295 JLINK_WriteReg(R9, 0x18000114)
T5FF4 000:634.303 - 0.011ms returns 0
T5FF4 000:634.312 JLINK_WriteReg(R10, 0x00000000)
T5FF4 000:634.321 - 0.012ms returns 0
T5FF4 000:634.330 JLINK_WriteReg(R11, 0x00000000)
T5FF4 000:634.337 - 0.011ms returns 0
T5FF4 000:634.347 JLINK_WriteReg(R12, 0x00000000)
T5FF4 000:634.354 - 0.011ms returns 0
T5FF4 000:634.363 JLINK_WriteReg(R13 (SP), 0x18001000)
T5FF4 000:634.372 - 0.012ms returns 0
T5FF4 000:634.381 JLINK_WriteReg(R14, 0x18000001)
T5FF4 000:634.389 - 0.011ms returns 0
T5FF4 000:634.398 JLINK_WriteReg(R15 (PC), 0x180000F8)
T5FF4 000:634.481 - 0.091ms returns 0
T5FF4 000:634.495 JLINK_WriteReg(XPSR, 0x01000000)
T5FF4 000:634.504 - 0.012ms returns 0
T5FF4 000:634.513 JLINK_WriteReg(MSP, 0x18001000)
T5FF4 000:634.520 - 0.011ms returns 0
T5FF4 000:634.529 JLINK_WriteReg(PSP, 0x18001000)
T5FF4 000:634.537 - 0.011ms returns 0
T5FF4 000:634.546 JLINK_WriteReg(CFBP, 0x00000000)
T5FF4 000:634.554 - 0.011ms returns 0
T5FF4 000:634.564 JLINK_SetBPEx(Addr = 0x18000000, Type = 0xFFFFFFF2)
T5FF4 000:634.575 - 0.015ms returns 0x00000004
T5FF4 000:634.584 JLINK_Go()
T5FF4 000:634.602   CPU_WriteMem(4 bytes @ 0xE0002000)
T5FF4 000:635.153   CPU_ReadMem(4 bytes @ 0xE0001000)
T5FF4 000:638.905 - 4.357ms
T5FF4 000:638.951 JLINK_IsHalted()
T5FF4 000:642.228 - 3.292ms returns TRUE
T5FF4 000:642.255 JLINK_ReadReg(R15 (PC))
T5FF4 000:642.269 - 0.019ms returns 0x18000000
T5FF4 000:642.282 JLINK_ClrBPEx(BPHandle = 0x00000004)
T5FF4 000:642.294 - 0.016ms returns 0x00
T5FF4 000:642.306 JLINK_ReadReg(R0)
T5FF4 000:642.317 - 0.016ms returns 0x00000001
T5FF4 000:642.331 JLINK_HasError()
T5FF4 000:642.344 JLINK_WriteReg(R0, 0x11001000)
T5FF4 000:642.356 - 0.017ms returns 0
T5FF4 000:642.369 JLINK_WriteReg(R1, 0x00001000)
T5FF4 000:642.380 - 0.015ms returns 0
T5FF4 000:642.392 JLINK_WriteReg(R2, 0x000000FF)
T5FF4 000:642.402 - 0.015ms returns 0
T5FF4 000:642.414 JLINK_WriteReg(R3, 0x00000000)
T5FF4 000:642.425 - 0.015ms returns 0
T5FF4 000:642.437 JLINK_WriteReg(R4, 0x00000000)
T5FF4 000:642.448 - 0.015ms returns 0
T5FF4 000:642.460 JLINK_WriteReg(R5, 0x00000000)
T5FF4 000:642.470 - 0.016ms returns 0
T5FF4 000:642.483 JLINK_WriteReg(R6, 0x00000000)
T5FF4 000:642.493 - 0.015ms returns 0
T5FF4 000:642.505 JLINK_WriteReg(R7, 0x00000000)
T5FF4 000:642.516 - 0.015ms returns 0
T5FF4 000:642.528 JLINK_WriteReg(R8, 0x00000000)
T5FF4 000:642.539 - 0.016ms returns 0
T5FF4 000:642.551 JLINK_WriteReg(R9, 0x18000114)
T5FF4 000:642.562 - 0.015ms returns 0
T5FF4 000:642.574 JLINK_WriteReg(R10, 0x00000000)
T5FF4 000:642.585 - 0.015ms returns 0
T5FF4 000:642.597 JLINK_WriteReg(R11, 0x00000000)
T5FF4 000:642.607 - 0.015ms returns 0
T5FF4 000:642.619 JLINK_WriteReg(R12, 0x00000000)
T5FF4 000:642.630 - 0.015ms returns 0
T5FF4 000:642.642 JLINK_WriteReg(R13 (SP), 0x18001000)
T5FF4 000:642.654 - 0.016ms returns 0
T5FF4 000:642.666 JLINK_WriteReg(R14, 0x18000001)
T5FF4 000:642.676 - 0.015ms returns 0
T5FF4 000:642.690 JLINK_WriteReg(R15 (PC), 0x180000AC)
T5FF4 000:642.700 - 0.015ms returns 0
T5FF4 000:642.711 JLINK_WriteReg(XPSR, 0x01000000)
T5FF4 000:642.721 - 0.015ms returns 0
T5FF4 000:642.733 JLINK_WriteReg(MSP, 0x18001000)
T5FF4 000:642.743 - 0.014ms returns 0
T5FF4 000:642.754 JLINK_WriteReg(PSP, 0x18001000)
T5FF4 000:642.764 - 0.014ms returns 0
T5FF4 000:642.775 JLINK_WriteReg(CFBP, 0x00000000)
T5FF4 000:642.785 - 0.015ms returns 0
T5FF4 000:642.797 JLINK_SetBPEx(Addr = 0x18000000, Type = 0xFFFFFFF2)
T5FF4 000:642.809 - 0.018ms returns 0x00000005
T5FF4 000:642.822 JLINK_Go()
T5FF4 000:642.839   CPU_WriteMem(4 bytes @ 0xE0002000)
T5FF4 000:643.381   CPU_ReadMem(4 bytes @ 0xE0001000)
T5FF4 000:647.055 - 4.244ms
T5FF4 000:647.173 JLINK_IsHalted()
T5FF4 000:647.637 - 0.502ms returns FALSE
T5FF4 000:647.691 JLINK_HasError()
T5FF4 000:656.215 JLINK_IsHalted()
T5FF4 000:659.624 - 3.424ms returns TRUE
T5FF4 000:659.650 JLINK_ReadReg(R15 (PC))
T5FF4 000:659.665 - 0.020ms returns 0x18000000
T5FF4 000:659.677 JLINK_ClrBPEx(BPHandle = 0x00000005)
T5FF4 000:659.690 - 0.017ms returns 0x00
T5FF4 000:659.702 JLINK_ReadReg(R0)
T5FF4 000:659.713 - 0.016ms returns 0x00000000
T5FF4 000:660.324 JLINK_HasError()
T5FF4 000:660.351 JLINK_WriteReg(R0, 0x00000001)
T5FF4 000:660.366 - 0.020ms returns 0
T5FF4 000:660.378 JLINK_WriteReg(R1, 0x00001000)
T5FF4 000:660.388 - 0.015ms returns 0
T5FF4 000:660.400 JLINK_WriteReg(R2, 0x000000FF)
T5FF4 000:660.410 - 0.015ms returns 0
T5FF4 000:660.421 JLINK_WriteReg(R3, 0x00000000)
T5FF4 000:660.432 - 0.015ms returns 0
T5FF4 000:660.444 JLINK_WriteReg(R4, 0x00000000)
T5FF4 000:660.454 - 0.022ms returns 0
T5FF4 000:660.478 JLINK_WriteReg(R5, 0x00000000)
T5FF4 000:660.488 - 0.015ms returns 0
T5FF4 000:660.500 JLINK_WriteReg(R6, 0x00000000)
T5FF4 000:660.510 - 0.014ms returns 0
T5FF4 000:660.521 JLINK_WriteReg(R7, 0x00000000)
T5FF4 000:660.531 - 0.014ms returns 0
T5FF4 000:660.544 JLINK_WriteReg(R8, 0x00000000)
T5FF4 000:660.554 - 0.015ms returns 0
T5FF4 000:660.565 JLINK_WriteReg(R9, 0x18000114)
T5FF4 000:660.575 - 0.014ms returns 0
T5FF4 000:660.586 JLINK_WriteReg(R10, 0x00000000)
T5FF4 000:660.596 - 0.014ms returns 0
T5FF4 000:660.608 JLINK_WriteReg(R11, 0x00000000)
T5FF4 000:660.618 - 0.015ms returns 0
T5FF4 000:660.629 JLINK_WriteReg(R12, 0x00000000)
T5FF4 000:660.639 - 0.015ms returns 0
T5FF4 000:660.651 JLINK_WriteReg(R13 (SP), 0x18001000)
T5FF4 000:660.662 - 0.016ms returns 0
T5FF4 000:660.674 JLINK_WriteReg(R14, 0x18000001)
T5FF4 000:660.684 - 0.015ms returns 0
T5FF4 000:660.695 JLINK_WriteReg(R15 (PC), 0x18000066)
T5FF4 000:660.706 - 0.015ms returns 0
T5FF4 000:660.717 JLINK_WriteReg(XPSR, 0x01000000)
T5FF4 000:660.728 - 0.015ms returns 0
T5FF4 000:660.739 JLINK_WriteReg(MSP, 0x18001000)
T5FF4 000:660.750 - 0.015ms returns 0
T5FF4 000:660.761 JLINK_WriteReg(PSP, 0x18001000)
T5FF4 000:660.771 - 0.015ms returns 0
T5FF4 000:660.783 JLINK_WriteReg(CFBP, 0x00000000)
T5FF4 000:660.793 - 0.014ms returns 0
T5FF4 000:660.805 JLINK_SetBPEx(Addr = 0x18000000, Type = 0xFFFFFFF2)
T5FF4 000:660.818 - 0.017ms returns 0x00000006
T5FF4 000:660.830 JLINK_Go()
T5FF4 000:660.851   CPU_WriteMem(4 bytes @ 0xE0002000)
T5FF4 000:661.489   CPU_ReadMem(4 bytes @ 0xE0001000)
T5FF4 000:665.505 - 4.726ms
T5FF4 000:665.575 JLINK_IsHalted()
T5FF4 000:669.203 - 3.673ms returns TRUE
T5FF4 000:669.266 JLINK_ReadReg(R15 (PC))
T5FF4 000:669.288 - 0.030ms returns 0x18000000
T5FF4 000:669.307 JLINK_ClrBPEx(BPHandle = 0x00000006)
T5FF4 000:669.323 - 0.022ms returns 0x00
T5FF4 000:669.339 JLINK_ReadReg(R0)
T5FF4 000:669.354 - 0.021ms returns 0x00000000
T5FF4 000:757.300 JLINK_WriteMem(0x18000000, 0x130 Bytes, ...)
T5FF4 000:757.337   Data:  00 BE 0A E0 0D 78 2D 06 68 40 08 24 40 00 00 D3 ...
T5FF4 000:757.385   CPU_WriteMem(304 bytes @ 0x18000000)
T5FF4 000:759.841 - 2.560ms returns 0x130
T5FF4 000:759.933 JLINK_HasError()
T5FF4 000:759.953 JLINK_WriteReg(R0, 0x11000000)
T5FF4 000:759.973 - 0.026ms returns 0
T5FF4 000:759.988 JLINK_WriteReg(R1, 0x00B71B00)
T5FF4 000:760.001 - 0.019ms returns 0
T5FF4 000:760.016 JLINK_WriteReg(R2, 0x00000002)
T5FF4 000:760.029 - 0.019ms returns 0
T5FF4 000:760.044 JLINK_WriteReg(R3, 0x00000000)
T5FF4 000:760.057 - 0.019ms returns 0
T5FF4 000:760.072 JLINK_WriteReg(R4, 0x00000000)
T5FF4 000:760.085 - 0.019ms returns 0
T5FF4 000:760.099 JLINK_WriteReg(R5, 0x00000000)
T5FF4 000:760.112 - 0.019ms returns 0
T5FF4 000:760.126 JLINK_WriteReg(R6, 0x00000000)
T5FF4 000:760.139 - 0.020ms returns 0
T5FF4 000:760.155 JLINK_WriteReg(R7, 0x00000000)
T5FF4 000:760.168 - 0.019ms returns 0
T5FF4 000:760.183 JLINK_WriteReg(R8, 0x00000000)
T5FF4 000:760.196 - 0.019ms returns 0
T5FF4 000:760.210 JLINK_WriteReg(R9, 0x18000114)
T5FF4 000:760.223 - 0.019ms returns 0
T5FF4 000:760.238 JLINK_WriteReg(R10, 0x00000000)
T5FF4 000:760.251 - 0.019ms returns 0
T5FF4 000:760.265 JLINK_WriteReg(R11, 0x00000000)
T5FF4 000:760.278 - 0.018ms returns 0
T5FF4 000:760.293 JLINK_WriteReg(R12, 0x00000000)
T5FF4 000:760.306 - 0.019ms returns 0
T5FF4 000:760.321 JLINK_WriteReg(R13 (SP), 0x18001000)
T5FF4 000:760.335 - 0.020ms returns 0
T5FF4 000:760.350 JLINK_WriteReg(R14, 0x18000001)
T5FF4 000:760.363 - 0.018ms returns 0
T5FF4 000:760.377 JLINK_WriteReg(R15 (PC), 0x18000062)
T5FF4 000:760.390 - 0.019ms returns 0
T5FF4 000:760.404 JLINK_WriteReg(XPSR, 0x01000000)
T5FF4 000:760.418 - 0.019ms returns 0
T5FF4 000:760.432 JLINK_WriteReg(MSP, 0x18001000)
T5FF4 000:760.445 - 0.019ms returns 0
T5FF4 000:760.459 JLINK_WriteReg(PSP, 0x18001000)
T5FF4 000:760.472 - 0.019ms returns 0
T5FF4 000:760.487 JLINK_WriteReg(CFBP, 0x00000000)
T5FF4 000:760.501 - 0.033ms returns 0
T5FF4 000:760.537 JLINK_SetBPEx(Addr = 0x18000000, Type = 0xFFFFFFF2)
T5FF4 000:760.553 - 0.022ms returns 0x00000007
T5FF4 000:760.568 JLINK_Go()
T5FF4 000:760.590   CPU_WriteMem(4 bytes @ 0xE0002000)
T5FF4 000:761.132   CPU_ReadMem(4 bytes @ 0xE0001000)
T5FF4 000:764.840 - 4.297ms
T5FF4 000:764.883 JLINK_IsHalted()
T5FF4 000:768.217 - 3.378ms returns TRUE
T5FF4 000:768.281 JLINK_ReadReg(R15 (PC))
T5FF4 000:768.307 - 0.034ms returns 0x18000000
T5FF4 000:768.328 JLINK_ClrBPEx(BPHandle = 0x00000007)
T5FF4 000:768.349 - 0.028ms returns 0x00
T5FF4 000:768.369 JLINK_ReadReg(R0)
T5FF4 000:768.388 - 0.027ms returns 0x00000000
T5FF4 000:770.160 JLINK_WriteMem(0x18000130, 0x80 Bytes, ...)
T5FF4 000:770.209   Data:  04 FB 01 FE FF FF FF FF FF FF FF FF FF FF FF FF ...
T5FF4 000:770.282   CPU_WriteMem(128 bytes @ 0x18000130)
T5FF4 000:771.813 - 1.702ms returns 0x80
T5FF4 000:771.884 JLINK_HasError()
T5FF4 000:771.908 JLINK_WriteReg(R0, 0x11000000)
T5FF4 000:771.933 - 0.032ms returns 0
T5FF4 000:771.951 JLINK_WriteReg(R1, 0x00000080)
T5FF4 000:771.969 - 0.025ms returns 0
T5FF4 000:771.987 JLINK_WriteReg(R2, 0x18000130)
T5FF4 000:772.002 - 0.022ms returns 0
T5FF4 000:772.019 JLINK_WriteReg(R3, 0x00000000)
T5FF4 000:772.035 - 0.022ms returns 0
T5FF4 000:772.052 JLINK_WriteReg(R4, 0x00000000)
T5FF4 000:772.067 - 0.022ms returns 0
T5FF4 000:772.084 JLINK_WriteReg(R5, 0x00000000)
T5FF4 000:772.099 - 0.022ms returns 0
T5FF4 000:772.117 JLINK_WriteReg(R6, 0x00000000)
T5FF4 000:772.132 - 0.022ms returns 0
T5FF4 000:772.149 JLINK_WriteReg(R7, 0x00000000)
T5FF4 000:772.164 - 0.022ms returns 0
T5FF4 000:772.181 JLINK_WriteReg(R8, 0x00000000)
T5FF4 000:772.197 - 0.022ms returns 0
T5FF4 000:772.214 JLINK_WriteReg(R9, 0x18000114)
T5FF4 000:772.229 - 0.022ms returns 0
T5FF4 000:772.246 JLINK_WriteReg(R10, 0x00000000)
T5FF4 000:772.262 - 0.022ms returns 0
T5FF4 000:772.279 JLINK_WriteReg(R11, 0x00000000)
T5FF4 000:772.294 - 0.022ms returns 0
T5FF4 000:772.311 JLINK_WriteReg(R12, 0x00000000)
T5FF4 000:772.326 - 0.022ms returns 0
T5FF4 000:772.343 JLINK_WriteReg(R13 (SP), 0x18001000)
T5FF4 000:772.360 - 0.024ms returns 0
T5FF4 000:772.377 JLINK_WriteReg(R14, 0x18000001)
T5FF4 000:772.394 - 0.024ms returns 0
T5FF4 000:772.411 JLINK_WriteReg(R15 (PC), 0x180000CC)
T5FF4 000:772.427 - 0.023ms returns 0
T5FF4 000:772.445 JLINK_WriteReg(XPSR, 0x01000000)
T5FF4 000:772.460 - 0.022ms returns 0
T5FF4 000:772.478 JLINK_WriteReg(MSP, 0x18001000)
T5FF4 000:772.493 - 0.022ms returns 0
T5FF4 000:772.510 JLINK_WriteReg(PSP, 0x18001000)
T5FF4 000:772.525 - 0.022ms returns 0
T5FF4 000:772.542 JLINK_WriteReg(CFBP, 0x00000000)
T5FF4 000:772.558 - 0.022ms returns 0
T5FF4 000:772.575 JLINK_SetBPEx(Addr = 0x18000000, Type = 0xFFFFFFF2)
T5FF4 000:772.594 - 0.026ms returns 0x00000008
T5FF4 000:772.611 JLINK_Go()
T5FF4 000:772.637   CPU_WriteMem(4 bytes @ 0xE0002000)
T5FF4 000:773.231   CPU_ReadMem(4 bytes @ 0xE0001000)
T5FF4 000:777.190 - 4.603ms
T5FF4 000:777.250 JLINK_IsHalted()
T5FF4 000:777.732 - 0.526ms returns FALSE
T5FF4 000:777.805 JLINK_HasError()
T5FF4 000:803.562 JLINK_IsHalted()
T5FF4 000:806.917 - 3.390ms returns TRUE
T5FF4 000:806.985 JLINK_ReadReg(R15 (PC))
T5FF4 000:807.004 - 0.026ms returns 0x18000000
T5FF4 000:807.109 JLINK_ClrBPEx(BPHandle = 0x00000008)
T5FF4 000:807.125 - 0.022ms returns 0x00
T5FF4 000:807.140 JLINK_ReadReg(R0)
T5FF4 000:807.152 - 0.018ms returns 0x00000000
T5FF4 000:808.126 JLINK_WriteMem(0x18000130, 0x80 Bytes, ...)
T5FF4 000:808.153   Data:  00 7C 00 18 2D 00 00 11 00 00 00 00 00 00 00 00 ...
T5FF4 000:808.190   CPU_WriteMem(128 bytes @ 0x18000130)
T5FF4 000:809.756 - 1.640ms returns 0x80
T5FF4 000:809.778 JLINK_HasError()
T5FF4 000:809.794 JLINK_WriteReg(R0, 0x11000080)
T5FF4 000:809.810 - 0.022ms returns 0
T5FF4 000:809.824 JLINK_WriteReg(R1, 0x00000080)
T5FF4 000:809.837 - 0.018ms returns 0
T5FF4 000:809.850 JLINK_WriteReg(R2, 0x18000130)
T5FF4 000:809.863 - 0.017ms returns 0
T5FF4 000:809.876 JLINK_WriteReg(R3, 0x00000000)
T5FF4 000:809.899 - 0.034ms returns 0
T5FF4 000:809.919 JLINK_WriteReg(R4, 0x00000000)
T5FF4 000:809.931 - 0.017ms returns 0
T5FF4 000:809.944 JLINK_WriteReg(R5, 0x00000000)
T5FF4 000:809.956 - 0.017ms returns 0
T5FF4 000:809.970 JLINK_WriteReg(R6, 0x00000000)
T5FF4 000:809.982 - 0.017ms returns 0
T5FF4 000:809.995 JLINK_WriteReg(R7, 0x00000000)
T5FF4 000:810.009 - 0.019ms returns 0
T5FF4 000:810.023 JLINK_WriteReg(R8, 0x00000000)
T5FF4 000:810.035 - 0.017ms returns 0
T5FF4 000:810.048 JLINK_WriteReg(R9, 0x18000114)
T5FF4 000:810.060 - 0.017ms returns 0
T5FF4 000:810.074 JLINK_WriteReg(R10, 0x00000000)
T5FF4 000:810.086 - 0.018ms returns 0
T5FF4 000:810.100 JLINK_WriteReg(R11, 0x00000000)
T5FF4 000:810.112 - 0.017ms returns 0
T5FF4 000:810.125 JLINK_WriteReg(R12, 0x00000000)
T5FF4 000:810.137 - 0.017ms returns 0
T5FF4 000:810.151 JLINK_WriteReg(R13 (SP), 0x18001000)
T5FF4 000:810.164 - 0.019ms returns 0
T5FF4 000:810.178 JLINK_WriteReg(R14, 0x18000001)
T5FF4 000:810.190 - 0.018ms returns 0
T5FF4 000:810.204 JLINK_WriteReg(R15 (PC), 0x180000CC)
T5FF4 000:810.216 - 0.017ms returns 0
T5FF4 000:810.229 JLINK_WriteReg(XPSR, 0x01000000)
T5FF4 000:810.242 - 0.018ms returns 0
T5FF4 000:810.256 JLINK_WriteReg(MSP, 0x18001000)
T5FF4 000:810.268 - 0.017ms returns 0
T5FF4 000:810.281 JLINK_WriteReg(PSP, 0x18001000)
T5FF4 000:810.293 - 0.018ms returns 0
T5FF4 000:810.307 JLINK_WriteReg(CFBP, 0x00000000)
T5FF4 000:810.319 - 0.017ms returns 0
T5FF4 000:810.334 JLINK_SetBPEx(Addr = 0x18000000, Type = 0xFFFFFFF2)
T5FF4 000:810.348 - 0.020ms returns 0x00000009
T5FF4 000:810.362 JLINK_Go()
T5FF4 000:810.380   CPU_WriteMem(4 bytes @ 0xE0002000)
T5FF4 000:810.853   CPU_ReadMem(4 bytes @ 0xE0001000)
T5FF4 000:814.675 - 4.352ms
T5FF4 000:814.729 JLINK_IsHalted()
T5FF4 000:815.404 - 0.688ms returns FALSE
T5FF4 000:815.429 JLINK_HasError()
T5FF4 000:842.534 JLINK_IsHalted()
T5FF4 000:846.137 - 3.636ms returns TRUE
T5FF4 000:846.190 JLINK_ReadReg(R15 (PC))
T5FF4 000:846.213 - 0.031ms returns 0x18000000
T5FF4 000:846.233 JLINK_ClrBPEx(BPHandle = 0x00000009)
T5FF4 000:846.252 - 0.026ms returns 0x00
T5FF4 000:846.271 JLINK_ReadReg(R0)
T5FF4 000:846.288 - 0.024ms returns 0x00000000
T5FF4 000:847.494 JLINK_WriteMem(0x18000130, 0x80 Bytes, ...)
T5FF4 000:847.532   Data:  00 7C 00 18 2D 00 00 11 79 0E 00 11 CD 0A 00 11 ...
T5FF4 000:847.579   CPU_WriteMem(128 bytes @ 0x18000130)
T5FF4 000:849.108 - 1.657ms returns 0x80
T5FF4 000:849.173 JLINK_HasError()
T5FF4 000:849.196 JLINK_WriteReg(R0, 0x11000100)
T5FF4 000:849.222 - 0.034ms returns 0
T5FF4 000:849.241 JLINK_WriteReg(R1, 0x00000080)
T5FF4 000:849.258 - 0.024ms returns 0
T5FF4 000:849.277 JLINK_WriteReg(R2, 0x18000130)
T5FF4 000:849.297 - 0.028ms returns 0
T5FF4 000:849.318 JLINK_WriteReg(R3, 0x00000000)
T5FF4 000:849.337 - 0.028ms returns 0
T5FF4 000:849.358 JLINK_WriteReg(R4, 0x00000000)
T5FF4 000:849.377 - 0.028ms returns 0
T5FF4 000:849.400 JLINK_WriteReg(R5, 0x00000000)
T5FF4 000:849.417 - 0.025ms returns 0
T5FF4 000:849.435 JLINK_WriteReg(R6, 0x00000000)
T5FF4 000:849.450 - 0.022ms returns 0
T5FF4 000:849.467 JLINK_WriteReg(R7, 0x00000000)
T5FF4 000:849.482 - 0.022ms returns 0
T5FF4 000:849.499 JLINK_WriteReg(R8, 0x00000000)
T5FF4 000:849.515 - 0.022ms returns 0
T5FF4 000:849.531 JLINK_WriteReg(R9, 0x18000114)
T5FF4 000:849.547 - 0.022ms returns 0
T5FF4 000:849.563 JLINK_WriteReg(R10, 0x00000000)
T5FF4 000:849.579 - 0.022ms returns 0
T5FF4 000:849.596 JLINK_WriteReg(R11, 0x00000000)
T5FF4 000:849.612 - 0.023ms returns 0
T5FF4 000:849.630 JLINK_WriteReg(R12, 0x00000000)
T5FF4 000:849.645 - 0.022ms returns 0
T5FF4 000:849.663 JLINK_WriteReg(R13 (SP), 0x18001000)
T5FF4 000:849.679 - 0.023ms returns 0
T5FF4 000:849.696 JLINK_WriteReg(R14, 0x18000001)
T5FF4 000:849.712 - 0.022ms returns 0
T5FF4 000:849.728 JLINK_WriteReg(R15 (PC), 0x180000CC)
T5FF4 000:849.744 - 0.022ms returns 0
T5FF4 000:849.761 JLINK_WriteReg(XPSR, 0x01000000)
T5FF4 000:849.776 - 0.022ms returns 0
T5FF4 000:849.793 JLINK_WriteReg(MSP, 0x18001000)
T5FF4 000:849.822 - 0.045ms returns 0
T5FF4 000:849.849 JLINK_WriteReg(PSP, 0x18001000)
T5FF4 000:849.865 - 0.024ms returns 0
T5FF4 000:849.884 JLINK_WriteReg(CFBP, 0x00000000)
T5FF4 000:849.901 - 0.024ms returns 0
T5FF4 000:849.920 JLINK_SetBPEx(Addr = 0x18000000, Type = 0xFFFFFFF2)
T5FF4 000:849.940 - 0.028ms returns 0x0000000A
T5FF4 000:849.960 JLINK_Go()
T5FF4 000:849.990   CPU_WriteMem(4 bytes @ 0xE0002000)
T5FF4 000:850.641   CPU_ReadMem(4 bytes @ 0xE0001000)
T5FF4 000:854.532 - 4.607ms
T5FF4 000:854.583 JLINK_IsHalted()
T5FF4 000:855.065 - 0.490ms returns FALSE
T5FF4 000:855.084 JLINK_HasError()
T5FF4 000:862.274 JLINK_IsHalted()
T5FF4 000:866.071 - 3.829ms returns TRUE
T5FF4 000:866.119 JLINK_ReadReg(R15 (PC))
T5FF4 000:866.138 - 0.025ms returns 0x18000000
T5FF4 000:866.155 JLINK_ClrBPEx(BPHandle = 0x0000000A)
T5FF4 000:866.169 - 0.020ms returns 0x00
T5FF4 000:866.184 JLINK_ReadReg(R0)
T5FF4 000:866.197 - 0.019ms returns 0x00000000
T5FF4 000:867.148 JLINK_WriteMem(0x18000130, 0x80 Bytes, ...)
T5FF4 000:867.179   Data:  9D 0A 00 11 9D 0A 00 11 85 0E 00 11 9D 0A 00 11 ...
T5FF4 000:867.219   CPU_WriteMem(128 bytes @ 0x18000130)
T5FF4 000:868.842 - 1.704ms returns 0x80
T5FF4 000:868.866 JLINK_HasError()
T5FF4 000:868.884 JLINK_WriteReg(R0, 0x11000180)
T5FF4 000:868.903 - 0.026ms returns 0
T5FF4 000:868.919 JLINK_WriteReg(R1, 0x00000080)
T5FF4 000:868.934 - 0.021ms returns 0
T5FF4 000:868.949 JLINK_WriteReg(R2, 0x18000130)
T5FF4 000:868.964 - 0.020ms returns 0
T5FF4 000:868.979 JLINK_WriteReg(R3, 0x00000000)
T5FF4 000:868.993 - 0.020ms returns 0
T5FF4 000:869.009 JLINK_WriteReg(R4, 0x00000000)
T5FF4 000:869.024 - 0.021ms returns 0
T5FF4 000:869.040 JLINK_WriteReg(R5, 0x00000000)
T5FF4 000:869.054 - 0.021ms returns 0
T5FF4 000:869.070 JLINK_WriteReg(R6, 0x00000000)
T5FF4 000:869.084 - 0.020ms returns 0
T5FF4 000:869.099 JLINK_WriteReg(R7, 0x00000000)
T5FF4 000:869.113 - 0.020ms returns 0
T5FF4 000:869.129 JLINK_WriteReg(R8, 0x00000000)
T5FF4 000:869.143 - 0.020ms returns 0
T5FF4 000:869.158 JLINK_WriteReg(R9, 0x18000114)
T5FF4 000:869.172 - 0.020ms returns 0
T5FF4 000:869.188 JLINK_WriteReg(R10, 0x00000000)
T5FF4 000:869.202 - 0.020ms returns 0
T5FF4 000:869.217 JLINK_WriteReg(R11, 0x00000000)
T5FF4 000:869.231 - 0.020ms returns 0
T5FF4 000:869.247 JLINK_WriteReg(R12, 0x00000000)
T5FF4 000:869.261 - 0.020ms returns 0
T5FF4 000:869.276 JLINK_WriteReg(R13 (SP), 0x18001000)
T5FF4 000:869.292 - 0.022ms returns 0
T5FF4 000:869.307 JLINK_WriteReg(R14, 0x18000001)
T5FF4 000:869.322 - 0.020ms returns 0
T5FF4 000:869.337 JLINK_WriteReg(R15 (PC), 0x180000CC)
T5FF4 000:869.352 - 0.021ms returns 0
T5FF4 000:869.368 JLINK_WriteReg(XPSR, 0x01000000)
T5FF4 000:869.382 - 0.020ms returns 0
T5FF4 000:869.398 JLINK_WriteReg(MSP, 0x18001000)
T5FF4 000:869.412 - 0.020ms returns 0
T5FF4 000:869.428 JLINK_WriteReg(PSP, 0x18001000)
T5FF4 000:869.442 - 0.020ms returns 0
T5FF4 000:869.458 JLINK_WriteReg(CFBP, 0x00000000)
T5FF4 000:869.472 - 0.020ms returns 0
T5FF4 000:869.488 JLINK_SetBPEx(Addr = 0x18000000, Type = 0xFFFFFFF2)
T5FF4 000:869.505 - 0.023ms returns 0x0000000B
T5FF4 000:869.521 JLINK_Go()
T5FF4 000:869.541   CPU_WriteMem(4 bytes @ 0xE0002000)
T5FF4 000:870.297   CPU_ReadMem(4 bytes @ 0xE0001000)
T5FF4 000:874.448 - 4.957ms
T5FF4 000:874.495 JLINK_IsHalted()
T5FF4 000:875.104 - 0.620ms returns FALSE
T5FF4 000:875.129 JLINK_HasError()
T5FF4 000:877.102 JLINK_IsHalted()
T5FF4 000:877.669 - 0.577ms returns FALSE
T5FF4 000:877.692 JLINK_HasError()
T5FF4 000:879.090 JLINK_IsHalted()
T5FF4 000:882.469 - 3.407ms returns TRUE
T5FF4 000:882.515 JLINK_ReadReg(R15 (PC))
T5FF4 000:882.541 - 0.034ms returns 0x18000000
T5FF4 000:882.562 JLINK_ClrBPEx(BPHandle = 0x0000000B)
T5FF4 000:882.583 - 0.029ms returns 0x00
T5FF4 000:882.604 JLINK_ReadReg(R0)
T5FF4 000:882.624 - 0.028ms returns 0x00000000
T5FF4 000:884.475 JLINK_WriteMem(0x18000130, 0x80 Bytes, ...)
T5FF4 000:884.538   Data:  AC 42 01 D3 00 F0 32 F8 13 F0 01 0F 18 BF FB 1A ...
T5FF4 000:884.588   CPU_WriteMem(128 bytes @ 0x18000130)
T5FF4 000:886.171 - 1.738ms returns 0x80
T5FF4 000:886.236 JLINK_HasError()
T5FF4 000:886.263 JLINK_WriteReg(R0, 0x11000200)
T5FF4 000:886.292 - 0.040ms returns 0
T5FF4 000:886.317 JLINK_WriteReg(R1, 0x00000080)
T5FF4 000:886.338 - 0.032ms returns 0
T5FF4 000:886.362 JLINK_WriteReg(R2, 0x18000130)
T5FF4 000:886.382 - 0.030ms returns 0
T5FF4 000:886.405 JLINK_WriteReg(R3, 0x00000000)
T5FF4 000:886.426 - 0.030ms returns 0
T5FF4 000:886.448 JLINK_WriteReg(R4, 0x00000000)
T5FF4 000:886.468 - 0.029ms returns 0
T5FF4 000:886.490 JLINK_WriteReg(R5, 0x00000000)
T5FF4 000:886.510 - 0.029ms returns 0
T5FF4 000:886.533 JLINK_WriteReg(R6, 0x00000000)
T5FF4 000:886.553 - 0.030ms returns 0
T5FF4 000:886.576 JLINK_WriteReg(R7, 0x00000000)
T5FF4 000:886.595 - 0.029ms returns 0
T5FF4 000:886.618 JLINK_WriteReg(R8, 0x00000000)
T5FF4 000:886.637 - 0.029ms returns 0
T5FF4 000:886.659 JLINK_WriteReg(R9, 0x18000114)
T5FF4 000:886.678 - 0.028ms returns 0
T5FF4 000:886.699 JLINK_WriteReg(R10, 0x00000000)
T5FF4 000:886.718 - 0.028ms returns 0
T5FF4 000:886.740 JLINK_WriteReg(R11, 0x00000000)
T5FF4 000:886.758 - 0.027ms returns 0
T5FF4 000:886.779 JLINK_WriteReg(R12, 0x00000000)
T5FF4 000:886.797 - 0.027ms returns 0
T5FF4 000:886.818 JLINK_WriteReg(R13 (SP), 0x18001000)
T5FF4 000:886.838 - 0.028ms returns 0
T5FF4 000:886.859 JLINK_WriteReg(R14, 0x18000001)
T5FF4 000:886.877 - 0.027ms returns 0
T5FF4 000:886.944 JLINK_WriteReg(R15 (PC), 0x180000CC)
T5FF4 000:886.986 - 0.049ms returns 0
T5FF4 000:887.002 JLINK_WriteReg(XPSR, 0x01000000)
T5FF4 000:887.016 - 0.020ms returns 0
T5FF4 000:887.031 JLINK_WriteReg(MSP, 0x18001000)
T5FF4 000:887.044 - 0.019ms returns 0
T5FF4 000:887.059 JLINK_WriteReg(PSP, 0x18001000)
T5FF4 000:887.072 - 0.019ms returns 0
T5FF4 000:887.087 JLINK_WriteReg(CFBP, 0x00000000)
T5FF4 000:887.100 - 0.019ms returns 0
T5FF4 000:887.115 JLINK_SetBPEx(Addr = 0x18000000, Type = 0xFFFFFFF2)
T5FF4 000:887.133 - 0.024ms returns 0x0000000C
T5FF4 000:887.148 JLINK_Go()
T5FF4 000:887.172   CPU_WriteMem(4 bytes @ 0xE0002000)
T5FF4 000:887.710   CPU_ReadMem(4 bytes @ 0xE0001000)
T5FF4 000:891.419 - 4.285ms
T5FF4 000:891.447 JLINK_IsHalted()
T5FF4 000:892.010 - 0.587ms returns FALSE
T5FF4 000:892.053 JLINK_HasError()
T5FF4 000:894.038 JLINK_IsHalted()
T5FF4 000:894.543 - 0.515ms returns FALSE
T5FF4 000:894.566 JLINK_HasError()
T5FF4 000:896.120 JLINK_IsHalted()
T5FF4 000:900.072 - 3.971ms returns TRUE
T5FF4 000:900.104 JLINK_ReadReg(R15 (PC))
T5FF4 000:900.124 - 0.028ms returns 0x18000000
T5FF4 000:900.142 JLINK_ClrBPEx(BPHandle = 0x0000000C)
T5FF4 000:900.157 - 0.021ms returns 0x00
T5FF4 000:900.173 JLINK_ReadReg(R0)
T5FF4 000:900.187 - 0.020ms returns 0x00000000
T5FF4 000:901.235 JLINK_WriteMem(0x18000130, 0x80 Bytes, ...)
T5FF4 000:901.268   Data:  03 B4 FF F7 F1 FF 03 BC 00 F0 E0 F9 0F B4 04 49 ...
T5FF4 000:901.305   CPU_WriteMem(128 bytes @ 0x18000130)
T5FF4 000:902.771 - 1.563ms returns 0x80
T5FF4 000:902.812 JLINK_HasError()
T5FF4 000:902.830 JLINK_WriteReg(R0, 0x11000280)
T5FF4 000:902.851 - 0.028ms returns 0
T5FF4 000:902.866 JLINK_WriteReg(R1, 0x00000080)
T5FF4 000:902.881 - 0.020ms returns 0
T5FF4 000:902.896 JLINK_WriteReg(R2, 0x18000130)
T5FF4 000:902.909 - 0.019ms returns 0
T5FF4 000:902.923 JLINK_WriteReg(R3, 0x00000000)
T5FF4 000:902.936 - 0.019ms returns 0
T5FF4 000:902.951 JLINK_WriteReg(R4, 0x00000000)
T5FF4 000:902.964 - 0.019ms returns 0
T5FF4 000:902.978 JLINK_WriteReg(R5, 0x00000000)
T5FF4 000:902.991 - 0.019ms returns 0
T5FF4 000:903.005 JLINK_WriteReg(R6, 0x00000000)
T5FF4 000:903.018 - 0.019ms returns 0
T5FF4 000:903.033 JLINK_WriteReg(R7, 0x00000000)
T5FF4 000:903.046 - 0.019ms returns 0
T5FF4 000:903.060 JLINK_WriteReg(R8, 0x00000000)
T5FF4 000:903.073 - 0.019ms returns 0
T5FF4 000:903.088 JLINK_WriteReg(R9, 0x18000114)
T5FF4 000:903.101 - 0.019ms returns 0
T5FF4 000:903.115 JLINK_WriteReg(R10, 0x00000000)
T5FF4 000:903.129 - 0.019ms returns 0
T5FF4 000:903.143 JLINK_WriteReg(R11, 0x00000000)
T5FF4 000:903.167 - 0.036ms returns 0
T5FF4 000:903.188 JLINK_WriteReg(R12, 0x00000000)
T5FF4 000:903.201 - 0.019ms returns 0
T5FF4 000:903.215 JLINK_WriteReg(R13 (SP), 0x18001000)
T5FF4 000:903.230 - 0.020ms returns 0
T5FF4 000:903.245 JLINK_WriteReg(R14, 0x18000001)
T5FF4 000:903.258 - 0.019ms returns 0
T5FF4 000:903.273 JLINK_WriteReg(R15 (PC), 0x180000CC)
T5FF4 000:903.286 - 0.019ms returns 0
T5FF4 000:903.301 JLINK_WriteReg(XPSR, 0x01000000)
T5FF4 000:903.314 - 0.019ms returns 0
T5FF4 000:903.328 JLINK_WriteReg(MSP, 0x18001000)
T5FF4 000:903.341 - 0.019ms returns 0
T5FF4 000:903.356 JLINK_WriteReg(PSP, 0x18001000)
T5FF4 000:903.369 - 0.019ms returns 0
T5FF4 000:903.383 JLINK_WriteReg(CFBP, 0x00000000)
T5FF4 000:903.396 - 0.019ms returns 0
T5FF4 000:903.411 JLINK_SetBPEx(Addr = 0x18000000, Type = 0xFFFFFFF2)
T5FF4 000:903.427 - 0.022ms returns 0x0000000D
T5FF4 000:903.443 JLINK_Go()
T5FF4 000:903.464   CPU_WriteMem(4 bytes @ 0xE0002000)
T5FF4 000:904.081   CPU_ReadMem(4 bytes @ 0xE0001000)
T5FF4 000:907.855 - 4.430ms
T5FF4 000:907.891 JLINK_IsHalted()
T5FF4 000:908.368 - 0.488ms returns FALSE
T5FF4 000:908.394 JLINK_HasError()
T5FF4 000:910.256 JLINK_IsHalted()
T5FF4 000:910.752 - 0.509ms returns FALSE
T5FF4 000:910.779 JLINK_HasError()
T5FF4 000:912.070 JLINK_IsHalted()
T5FF4 000:915.613 - 3.560ms returns TRUE
T5FF4 000:915.647 JLINK_ReadReg(R15 (PC))
T5FF4 000:915.670 - 0.031ms returns 0x18000000
T5FF4 000:915.690 JLINK_ClrBPEx(BPHandle = 0x0000000D)
T5FF4 000:915.708 - 0.026ms returns 0x00
T5FF4 000:915.727 JLINK_ReadReg(R0)
T5FF4 000:915.744 - 0.024ms returns 0x00000000
T5FF4 000:916.998 JLINK_WriteMem(0x18000130, 0x80 Bytes, ...)
T5FF4 000:917.037   Data:  31 46 16 A5 10 D0 AF F3 00 80 00 28 02 DA 40 42 ...
T5FF4 000:917.083   CPU_WriteMem(128 bytes @ 0x18000130)
T5FF4 000:918.553 - 1.568ms returns 0x80
T5FF4 000:918.580 JLINK_HasError()
T5FF4 000:918.600 JLINK_WriteReg(R0, 0x11000300)
T5FF4 000:918.620 - 0.027ms returns 0
T5FF4 000:918.637 JLINK_WriteReg(R1, 0x00000080)
T5FF4 000:918.652 - 0.022ms returns 0
T5FF4 000:918.669 JLINK_WriteReg(R2, 0x18000130)
T5FF4 000:918.684 - 0.022ms returns 0
T5FF4 000:918.701 JLINK_WriteReg(R3, 0x00000000)
T5FF4 000:918.716 - 0.022ms returns 0
T5FF4 000:918.733 JLINK_WriteReg(R4, 0x00000000)
T5FF4 000:918.748 - 0.023ms returns 0
T5FF4 000:918.767 JLINK_WriteReg(R5, 0x00000000)
T5FF4 000:918.782 - 0.023ms returns 0
T5FF4 000:918.800 JLINK_WriteReg(R6, 0x00000000)
T5FF4 000:918.814 - 0.022ms returns 0
T5FF4 000:918.832 JLINK_WriteReg(R7, 0x00000000)
T5FF4 000:918.847 - 0.022ms returns 0
T5FF4 000:918.865 JLINK_WriteReg(R8, 0x00000000)
T5FF4 000:918.880 - 0.022ms returns 0
T5FF4 000:918.897 JLINK_WriteReg(R9, 0x18000114)
T5FF4 000:918.912 - 0.022ms returns 0
T5FF4 000:918.929 JLINK_WriteReg(R10, 0x00000000)
T5FF4 000:918.944 - 0.022ms returns 0
T5FF4 000:918.961 JLINK_WriteReg(R11, 0x00000000)
T5FF4 000:918.976 - 0.022ms returns 0
T5FF4 000:918.994 JLINK_WriteReg(R12, 0x00000000)
T5FF4 000:919.009 - 0.022ms returns 0
T5FF4 000:919.026 JLINK_WriteReg(R13 (SP), 0x18001000)
T5FF4 000:919.042 - 0.023ms returns 0
T5FF4 000:919.059 JLINK_WriteReg(R14, 0x18000001)
T5FF4 000:919.074 - 0.022ms returns 0
T5FF4 000:919.091 JLINK_WriteReg(R15 (PC), 0x180000CC)
T5FF4 000:919.106 - 0.022ms returns 0
T5FF4 000:919.123 JLINK_WriteReg(XPSR, 0x01000000)
T5FF4 000:919.139 - 0.022ms returns 0
T5FF4 000:919.156 JLINK_WriteReg(MSP, 0x18001000)
T5FF4 000:919.171 - 0.022ms returns 0
T5FF4 000:919.188 JLINK_WriteReg(PSP, 0x18001000)
T5FF4 000:919.204 - 0.023ms returns 0
T5FF4 000:919.221 JLINK_WriteReg(CFBP, 0x00000000)
T5FF4 000:919.236 - 0.022ms returns 0
T5FF4 000:919.254 JLINK_SetBPEx(Addr = 0x18000000, Type = 0xFFFFFFF2)
T5FF4 000:919.272 - 0.025ms returns 0x0000000E
T5FF4 000:919.289 JLINK_Go()
T5FF4 000:919.311   CPU_WriteMem(4 bytes @ 0xE0002000)
T5FF4 000:919.925   CPU_ReadMem(4 bytes @ 0xE0001000)
T5FF4 000:924.092 - 4.843ms
T5FF4 000:924.152 JLINK_IsHalted()
T5FF4 000:924.679 - 0.538ms returns FALSE
T5FF4 000:924.720 JLINK_HasError()
T5FF4 000:935.297 JLINK_IsHalted()
T5FF4 000:939.204 - 3.948ms returns TRUE
T5FF4 000:939.264 JLINK_ReadReg(R15 (PC))
T5FF4 000:939.287 - 0.031ms returns 0x18000000
T5FF4 000:939.306 JLINK_ClrBPEx(BPHandle = 0x0000000E)
T5FF4 000:939.324 - 0.024ms returns 0x00
T5FF4 000:939.342 JLINK_ReadReg(R0)
T5FF4 000:939.357 - 0.024ms returns 0x00000000
T5FF4 000:940.630 JLINK_WriteMem(0x18000130, 0x80 Bytes, ...)
T5FF4 000:940.674   Data:  0F 4A 7A 44 02 E0 0E 4A 7A 44 0E 32 00 21 04 F1 ...
T5FF4 000:940.728   CPU_WriteMem(128 bytes @ 0x18000130)
T5FF4 000:942.354 - 1.742ms returns 0x80
T5FF4 000:942.387 JLINK_HasError()
T5FF4 000:942.406 JLINK_WriteReg(R0, 0x11000380)
T5FF4 000:942.427 - 0.027ms returns 0
T5FF4 000:942.443 JLINK_WriteReg(R1, 0x00000080)
T5FF4 000:942.457 - 0.020ms returns 0
T5FF4 000:942.473 JLINK_WriteReg(R2, 0x18000130)
T5FF4 000:942.486 - 0.020ms returns 0
T5FF4 000:942.502 JLINK_WriteReg(R3, 0x00000000)
T5FF4 000:942.516 - 0.020ms returns 0
T5FF4 000:942.531 JLINK_WriteReg(R4, 0x00000000)
T5FF4 000:942.545 - 0.020ms returns 0
T5FF4 000:942.561 JLINK_WriteReg(R5, 0x00000000)
T5FF4 000:942.575 - 0.020ms returns 0
T5FF4 000:942.590 JLINK_WriteReg(R6, 0x00000000)
T5FF4 000:942.604 - 0.020ms returns 0
T5FF4 000:942.619 JLINK_WriteReg(R7, 0x00000000)
T5FF4 000:942.633 - 0.020ms returns 0
T5FF4 000:942.649 JLINK_WriteReg(R8, 0x00000000)
T5FF4 000:942.663 - 0.020ms returns 0
T5FF4 000:942.678 JLINK_WriteReg(R9, 0x18000114)
T5FF4 000:942.693 - 0.021ms returns 0
T5FF4 000:942.709 JLINK_WriteReg(R10, 0x00000000)
T5FF4 000:942.723 - 0.021ms returns 0
T5FF4 000:942.739 JLINK_WriteReg(R11, 0x00000000)
T5FF4 000:942.753 - 0.020ms returns 0
T5FF4 000:942.769 JLINK_WriteReg(R12, 0x00000000)
T5FF4 000:942.783 - 0.020ms returns 0
T5FF4 000:942.798 JLINK_WriteReg(R13 (SP), 0x18001000)
T5FF4 000:942.814 - 0.022ms returns 0
